# SEN07xx RS-485 Modbus RTU 手动测试指令手册

用于 **SEN0746（RS-485）** 或带 Modbus 从机的 SEN07xx 模块，在串口助手 / Modbus 调试工具中 **手工发十六进制帧** 做联调与回归。  
寄存器定义见 [REGISTERMAP_MODBUS_CN.md](./REGISTERMAP_MODBUS_CN.md)。

---

## 1. 测试前准备

| 项目 | 建议值 |
|------|--------|
| 串口参数（出厂默认） | **9600，8N1** |
| 默认从站地址 | **1**（`SEN_MODBUS_SLAVE_ADDR_DEFAULT`） |
| RS-485 | A/B 正确、共地；USB 转 485 需支持自动 DE/RE 或手动拉高 DE 发送 |
| 工具 | 支持 **HEX 发送/接收**、显示完整应答（含 CRC） |

**帧格式（RTU）**

```text
[从站 1B][功能码 FC 1B][数据…][CRC16 低字节][CRC16 高字节]
```

- 寄存器地址、寄存器个数、寄存器值均为 **大端**（高字节在前）。
- 下文 **「发送」** 已含 CRC；若工具勾选「自动 CRC」，请只填 CRC 前的字节。

**功能码（FC）**

| FC | 名称 | 用途 |
|----|------|------|
| 0x03 | 读保持寄存器 | 读配置影子 |
| 0x04 | 读输入寄存器 | 读测量与标识 |
| 0x06 | 写单个保持寄存器 | 改一项配置 / COMMIT |
| 0x10 | 写多个保持寄存器 | 批量改配置 + 可含 COMMIT |

**异常应答**：`[从站][FC|0x80][异常码][CRC]`，例如 `01 84 02 …` = 对从站 1 的 0x04 请求「非法地址」。

---

## 2. 建议测试顺序（覆盖功能）

按编号顺序执行；带 ⚠️ 的项会改 EEPROM/波特率/从站号，请在最后做或记下恢复帧。

| 序号 | 类别 | 内容 |
|------|------|------|
| A1～A4 | 读输入 FC 0x04 | 身份、测量（12 字）、含时间戳（18 字）、分段读 |
| B1～B2 | 读保持 FC 0x03 | 全部 8 字、单项 |
| C0 | 广播写 FC 0x06/0x10 | 从站字段 **0x00**，无应答但影子生效（**单台总线**忘址恢复） |
| C1～C4 | 写保持 FC 0x06 | 波特率、校验、从站号、COMMIT |
| D1～D2 | 写多个 FC 0x10 | 批量写、批量写 + COMMIT |
| E1～E4 | 异常/边界 | 错误从站、非法 FC、非法地址、非法数据 |
| F1 | 恢复 | 一键恢复默认配置并 COMMIT |

---

## 3. 读输入寄存器（FC 0x04）— 测量与标识

### A1 读 PID + VID（2 个寄存器，地址 0x0000 起）

**发送**

```text
01 04 00 00 00 02 71 CB
```

**期望应答（示例，数据段随产品变化）**

```text
01 04 04 [PID_H][PID_L][VID_H][VID_L] [CRC]
```

| 产品 | PID 典型值 | VID |
|------|------------|-----|
| SEN0746 RS-485 | `C7 46` | `33 43` |
| SEN0742 TTL | `C7 42` | `33 43` |

---

### A2 读测量块（12 个寄存器，不含时间戳）— **最常用**

对应库 `readMeasurement(false)`：从 `0x0000` 起读 12 字；`0x0006` 为保留（恒 0），气体测量相关为 `0x0007`～`0x000B`。

**发送**

```text
01 04 00 00 00 0C F0 0F
```

**应答数据区 24 字节（12×16bit）解析**

| 寄存器 | 含义 | 说明 |
|--------|------|------|
| 0x0000 | PID | 见上表 |
| 0x0001 | VID | 0x3343 |
| 0x0002 | 当前 Modbus 从站号 | 低字节有效 |
| 0x0003～0x0004 | 保留 | 0 |
| 0x0005 | 寄存器图版本 | 典型 `01 00` |
| 0x0006 | 保留2 | 0 |
| 0x0007 | STATUS | bit0=1 表示测量有效 |
| 0x0008 | GAS_CODE | 低 8 位气体码 |
| 0x0009～0x000A | 浓度原码 | uint32，低字在前 |
| 0x000B | 小数位数 | 实际值 = 原码 × 10^(−小数位) |

---

### A3 读满表含墙钟（18 个寄存器）

**发送**

```text
01 04 00 00 00 12 70 07
```

额外解析 `0x000C`～`0x0011`：年（整 16 位）、月、日、时、分、秒（后 5 个寄存器通常仅用低字节）。

---

### A4 分段读气体区（从 0x0008 起 4 字）

**发送**

```text
01 04 00 08 00 04 70 0B
```

用于确认「非从 0 起始」的读地址是否正常。

---

## 4. 读保持寄存器（FC 0x03）— 配置影子

### B1 读全部 8 个保持寄存器

**发送**

```text
01 03 00 00 00 08 44 0C
```

**应答 16 字节数据对应**

| 地址 | 名称 | 典型影子值 |
|------|------|------------|
| 0x0000 | 保留 | 0 |
| 0x0001 | 保留 | 0 |
| 0x0002 | 保留 | 0 |
| 0x0003 | 波特率编码 | 3 = 9600 |
| 0x0004 | 校验/停止位 | 0 = 8N1 |
| 0x0005 | 探头休眠 | 0=RUN，1=SLEEP |
| 0x0006 | Modbus 从站地址 | 1 |
| 0x0007 | COMMIT | 读回常为 0 |

**波特率编码**：1=2400，2=4800，3=9600，4=14400，5=19200，6=38400，7=57600，8=115200。

---

## 5. 写单个保持寄存器（FC 0x06）

> **影子 = 本次上电生效**：写 `0x0003`/`0x0004` 后**本帧应答仍用旧波特率**，应答发完再切线参数；**下一帧起**用新速率。写 **0x0006** 后**立即**用新从站号应答。  
> **COMMIT（0x0007 = 0xA501）** 仅 EEPROM 落盘。主机应在 **9600** 收到写成功回显后，再改 **115200** 发读帧。  
> **广播（从站 0）**：仅 **FC 0x06 / 0x10** 会写保持寄存器且**从不回帧**；读请求静默忽略。多机总线勿用广播改从站号。

### C0 ⚠️ 广播写从站地址 = 1（无应答，单台总线）

适用于**不知道当前从站号**、且总线上**只有本模块**时，把从站改回 **1**（不落盘；要掉电保持再发 COMMIT）。

**发送**（首字节为 **00**，不是 01）

```text
00 06 00 06 00 01 A9 DA
```

**期望**：**无任何应答**（超时属正常）。随后用从站 **1** 读输入验证，例如：

```text
01 04 00 00 00 0C F0 0F
```

广播写波特率/COMMIT 等同理，把首字节改为 `00` 即可；COMMIT 成功也无回帧。

---

### C1 写波特率编码 = 3（9600，若已被改过可略过）

**发送**

```text
01 06 00 03 00 03 39 CB
```

**期望应答**：回显相同 8 字节 PDU + CRC：`01 06 00 03 00 03 39 CB`

---

### C2 写校验/停止 = 0（8N1）

**发送**

```text
01 06 00 04 00 00 C8 0B
```

---

### C3 ⚠️ 写从站地址 = 5（不落盘）

**发送**

```text
01 06 00 06 00 05 A9 C8
```

**之后**所有请求须用从站 **05**，例如再读输入：

```text
05 04 00 00 00 0C F1 8B
```

（CRC 随从站号变化，上式为从站 5 的读 12 字输入帧。）

---

### C4 ⚠️ COMMIT（仅落盘 EEPROM）

在影子已写好（波特率、校验、从站号等）后发送（线参数若在 C1/C2 已写过则早已生效）：

**从站仍为 1 时**

```text
01 06 00 07 A5 01 82 9B
```

**若已把从站改为 5 且未 COMMIT，须用从站 5 发 COMMIT**

```text
05 06 00 07 A5 01 83 1F
```

成功：正常回显 `06` 写应答；失败：异常 `05 86 03`（非法数据，影子不合法）。

---

## 6. 写多个保持寄存器（FC 0x10）

### D1 批量写波特率 + 校验（不落盘）

写 `0x0003`=8（115200）、`0x0004`=0：

**发送**

```text
01 10 00 03 00 02 04 00 08 00 00 32 78
```

**期望应答**

```text
01 10 00 03 00 02 B1 C8
```

写 **D1** 或 **C1** 后模块口**已是 115200**，主机应**立即**切到 **115200** 再测；**C4 COMMIT** 仅用于掉电保存。

---

### D2 ⚠️ 批量写影子 + 一次 COMMIT（恢复默认示例）

将保持区设为：波特率 3（9600）、校验 0、从站 **1**，并 COMMIT：

**发送**

```text
01 10 00 00 00 08 10 00 00 00 00 00 00 00 03 00 00 00 00 00 01 A5 01 E6 6D
```

数据 16 字节对应寄存器 0x0000～0x0007：

```text
00 00  00 00  00 00  00 03  00 00  00 00  00 01  A5 01
```

成功后用 **9600、从站 1** 再执行 **A2** 验证。

---

## 7. 异常与边界（负向测试）

| 编号 | 目的 | 发送 | 期望 |
|------|------|------|------|
| E1 | 错误从站 | `02 04 00 00 00 0C F0 3C` | 无应答或超时（从站 1 不应答） |
| E2 | 非法功能码 | `01 02 00 00 00 01 B9 CA` | `01 82 01 …`（非法功能） |
| E3 | 非法输入地址 | `01 04 00 20 00 01 30 00` | `01 84 02 …`（非法地址） |
| E4 | 非法波特编码 | `01 06 00 03 00 09 B9 CC` | `01 86 03 …`（非法数据） |

---

## 8. 功能覆盖核对表

测试完成后勾选：

- [ ] **A2/A3** 能读到合理 PID/VID、GAS_CODE、浓度原码、小数位  
- [ ] **A3** 时间戳寄存器有值或全 0（无 RTC 时）  
- [ ] **B1** 保持寄存器影子与预期一致  
- [ ] **C1+C2+C4** COMMIT 后串口参数仍可用  
- [ ] **C0** 广播写从站无应答，之后从站 1 可读  
- [ ] **C3** 改从站后必须用新地址通信；**C4** 或 **D2** 可恢复从站 1  
- [ ] **D1/D2** FC 0x10 批量写与 COMMIT 正常  
- [ ] **E1～E4** 异常码符合上表  

---

## 9. 常见问题

**Q：发帧无应答？**  
检查波特率、从站号、485 接线、DE 控制；用 **A1** 最短读 2 字排查。

**Q：改从站后「丢设备」？**  
对 **新从站号** 发 **B1** 或 **A2**；仍不行则在**单台总线**上用 **C0** 广播改回从站 1，或 **D2** 恢复（须当前波特率与总线一致）。

**Q：改波特率后乱码？**  
COMMIT 后模块已切到新波特率，主机须同步；用 **D2** 恢复 9600 + 从站 1。

**Q：CRC 错误？**  
确认工具未重复加 CRC；CRC 在帧尾且 **低字节在前**。

---

## 10. 附录：从站 5 时常用帧（改址后）

| 操作 | 发送 |
|------|------|
| 读输入 12 字 | `05 04 00 00 00 0C F1 8B` |
| 读保持 8 字 | `05 03 00 00 00 08 45 88` |
| COMMIT | `05 06 00 07 A5 01 83 1F` |

（若需其它从站号，可用 [Modbus CRC 在线计算](https://www.modbustools.com/modbus_crc16.html) 对「CRC 前字节」重算。）

---

## 11. 与 Arduino 库 API 对应关系

| 手册项 | 库接口 |
|--------|--------|
| A2 | `readMeasurement(false)` |
| A3 | `readMeasurementWithTimestamp()` |
| B1 | 基类 `readHoldingRegister` / 内部影子 |
| C3 | `setDeviceAddress(newAddr)` |
| C1/C2 + C4 | 写保持寄存器 + `commitConfiguration()` |

---

*文档版本：与 `DFRobot_IntelligentGasSensor` 库 V1.0.0 及 [REGISTERMAP_MODBUS_CN.md](./REGISTERMAP_MODBUS_CN.md) 对齐。*
